
T137C 000:492 SEGGER J-Link V4.96d Log File (0001ms, 0273ms total)
T137C 000:492 DLL Compiled: Jan 29 2015 11:45:37 (0001ms, 0273ms total)
T137C 000:492 Logging started @ 2016-06-30 17:38 (0001ms, 0273ms total)
T137C 000:493 JLINK_SetWarnOutHandler(...) (0000ms, 0273ms total)
T137C 000:493 JLINK_OpenEx(...)
Firmware: J-Link ARM V8 compiled Nov 28 2014 13:44:46
Hardware: V8.00
S/N: 17935099
Feature(s): RDI,FlashDL,FlashBP,JFlash  returns O.K. (0270ms, 0543ms total)
T137C 000:763 JLINK_SetErrorOutHandler(...) (0000ms, 0543ms total)
T137C 000:763 JLINK_ExecCommand("ProjectFile = "F:\研一的工作\LVDT\LVDT2\LVDT\projforlvdt\Project\JLinkSettings.ini"", ...)  returns 0x00 (0001ms, 0544ms total)
T137C 000:764 JLINK_ExecCommand("Device = STM32F405RG", ...)Device "STM32F405RG" selected.  returns 0x00 (0002ms, 0546ms total)
T137C 000:766 JLINK_ExecCommand("DisableConnectionTimeout", ...)  returns 0x01 (0000ms, 0546ms total)
T137C 000:766 JLINK_GetHardwareVersion()  returns 0x13880 (0000ms, 0546ms total)
T137C 000:766 JLINK_GetDLLVersion()  returns 49604 (0000ms, 0546ms total)
T137C 000:766 JLINK_GetFirmwareString(...) (0000ms, 0546ms total)
T137C 000:767 JLINK_GetDLLVersion()  returns 49604 (0000ms, 0546ms total)
T137C 000:767 JLINK_GetCompileDateTime() (0000ms, 0546ms total)
T137C 000:767 JLINK_GetFirmwareString(...) (0000ms, 0546ms total)
T137C 000:768 JLINK_GetHardwareVersion()  returns 0x13880 (0000ms, 0546ms total)
T137C 000:768 JLINK_TIF_Select(JLINKARM_TIF_SWD)  returns 0x00 (0002ms, 0548ms total)
T137C 000:770 JLINK_SetSpeed(200) (0000ms, 0548ms total)
T137C 000:770 JLINK_GetId() >0x108 TIF>Found SWD-DP with ID 0x2BA01477 >0x0D TIF> >0x28 TIF> >0x0D TIF> >0x28 TIF> >0x0D TIF> >0x21 TIF> >0x0D TIF> >0x28 TIF> >0x0D TIF> >0x28 TIF> >0x0D TIF> >0x28 TIF> >0x0D TIF> >0x21 TIF> >0x0D TIF> >0x21 TIF> >0x0D TIF> >0x28 TIF> >0x0D TIF> >0x21 TIF> >0x0D TIF> >0x21 TIF> >0x0D TIF> >0x28 TIF> >0x0D TIF> >0x21 TIF> >0x0D TIF> >0x21 TIF> >0x108 TIF>Found SWD-DP with ID 0x2BA01477 >0x0D TIF> >0x21 TIF> >0x0D TIF> >0x28 TIF> >0x0D TIF> >0x28 TIF> >0x0D TIF> >0x21 TIF>
 >0x0D TIF> >0x28 TIF> >0x0D TIF> >0x21 TIF> >0x0D TIF> >0x21 TIF> >0x0D TIF> >0x21 TIF> >0x0D TIF> >0x21 TIF> >0x0D TIF> >0x28 TIF> >0x0D TIF> >0x28 TIF> >0x0D TIF> >0x21 TIF> >0x0D TIF> >0x28 TIF> >0x0D TIF> >0x28 TIF> >0x0D TIF> >0x28 TIF> >0x0D TIF> >0x21 TIF> >0x0D TIF> >0x21 TIF> >0x0D TIF> >0x28 TIF> >0x0D TIF> >0x21 TIF> >0x0D TIF> >0x21 TIF>Found Cortex-M4 r0p1, Little endian. -- CPU_WriteMem(4 bytes @ 0xE0002000) -- CPU_ReadMem(4 bytes @ 0xE000EDF0) -- CPU_ReadMem(4 bytes @ 0xE0002000)
FPUnit: 6 code (BP) slots and 2 literal slots -- CPU_ReadMem(4 bytes @ 0xE000EDFC) -- CPU_ReadMem(4 bytes @ 0xE0001000) -- CPU_WriteMem(4 bytes @ 0xE0001000) -- CPU_ReadMem(4 bytes @ 0xE000ED88) -- CPU_WriteMem(4 bytes @ 0xE000ED88) -- CPU_ReadMem(4 bytes @ 0xE000ED88) -- CPU_WriteMem(4 bytes @ 0xE000ED88) -- CPU_ReadMem(4 bytes @ 0xE00FF010)TPIU fitted. -- CPU_ReadMem(4 bytes @ 0xE00FF014)ETM fitted. -- CPU_ReadMem(4 bytes @ 0xE00FF018) >0x0D TIF> >0x21 TIF>  returns 0x2BA01477 (0091ms, 0639ms total)
T137C 000:861 JLINK_GetDLLVersion()  returns 49604 (0000ms, 0639ms total)
T137C 000:861 JLINK_CORE_GetFound()  returns 0xE0000FF (0000ms, 0639ms total)
T137C 000:861 JLINK_GetDebugInfo(0x100) -- Value=0xE00FF003  returns 0x00 (0000ms, 0639ms total)
T137C 000:861 JLINK_ReadMem (0xE00FF000, 0x0020 Bytes, ...) -- CPU is running -- CPU_ReadMem(32 bytes @ 0xE00FF000) - Data: 03 F0 F0 FF 03 20 F0 FF 03 30 F0 FF 03 10 F0 FF ...  returns 0x00 (0005ms, 0644ms total)
T137C 000:866 JLINK_ReadMem (0xE000EFF0, 0x0010 Bytes, ...) -- CPU is running -- CPU_ReadMem(16 bytes @ 0xE000EFF0) - Data: 0D 00 00 00 E0 00 00 00 05 00 00 00 B1 00 00 00  returns 0x00 (0004ms, 0648ms total)
T137C 000:870 JLINK_ReadMem (0xE000EFD0, 0x0020 Bytes, ...) -- CPU is running -- CPU_ReadMem(32 bytes @ 0xE000EFD0) - Data: 04 00 00 00 00 00 00 00 00 00 00 00 00 00 00 00 ...  returns 0x00 (0005ms, 0653ms total)
T137C 000:875 JLINK_ReadMem (0xE0001FF0, 0x0010 Bytes, ...) -- CPU is running -- CPU_ReadMem(16 bytes @ 0xE0001FF0) - Data: 0D 00 00 00 E0 00 00 00 05 00 00 00 B1 00 00 00  returns 0x00 (0005ms, 0658ms total)
T137C 000:880 JLINK_ReadMem (0xE0001FD0, 0x0020 Bytes, ...) -- CPU is running -- CPU_ReadMem(32 bytes @ 0xE0001FD0) - Data: 04 00 00 00 00 00 00 00 00 00 00 00 00 00 00 00 ...  returns 0x00 (0005ms, 0663ms total)
T137C 000:885 JLINK_ReadMem (0xE0002FF0, 0x0010 Bytes, ...) -- CPU is running -- CPU_ReadMem(16 bytes @ 0xE0002FF0) - Data: 0D 00 00 00 E0 00 00 00 05 00 00 00 B1 00 00 00  returns 0x00 (0004ms, 0667ms total)
T137C 000:889 JLINK_ReadMem (0xE0002FD0, 0x0020 Bytes, ...) -- CPU is running -- CPU_ReadMem(32 bytes @ 0xE0002FD0) - Data: 04 00 00 00 00 00 00 00 00 00 00 00 00 00 00 00 ...  returns 0x00 (0005ms, 0672ms total)
T137C 000:894 JLINK_ReadMem (0xE0000FF0, 0x0010 Bytes, ...) -- CPU is running -- CPU_ReadMem(16 bytes @ 0xE0000FF0) - Data: 0D 00 00 00 E0 00 00 00 05 00 00 00 B1 00 00 00  returns 0x00 (0004ms, 0676ms total)
T137C 000:898 JLINK_ReadMem (0xE0000FD0, 0x0020 Bytes, ...) -- CPU is running -- CPU_ReadMem(32 bytes @ 0xE0000FD0) - Data: 04 00 00 00 00 00 00 00 00 00 00 00 00 00 00 00 ...  returns 0x00 (0005ms, 0681ms total)
T137C 000:903 JLINK_ReadMem (0xE0040FF0, 0x0010 Bytes, ...) -- CPU is running -- CPU_ReadMem(16 bytes @ 0xE0040FF0) - Data: 0D 00 00 00 90 00 00 00 05 00 00 00 B1 00 00 00  returns 0x00 (0004ms, 0685ms total)
T137C 000:907 JLINK_ReadMem (0xE0040FD0, 0x0020 Bytes, ...) -- CPU is running -- CPU_ReadMem(32 bytes @ 0xE0040FD0) - Data: 04 00 00 00 00 00 00 00 00 00 00 00 00 00 00 00 ...  returns 0x00 (0006ms, 0691ms total)
T137C 000:913 JLINK_ReadMem (0xE0041FF0, 0x0010 Bytes, ...) -- CPU is running -- CPU_ReadMem(16 bytes @ 0xE0041FF0) - Data: 0D 00 00 00 90 00 00 00 05 00 00 00 B1 00 00 00  returns 0x00 (0004ms, 0695ms total)
T137C 000:917 JLINK_ReadMem (0xE0041FD0, 0x0020 Bytes, ...) -- CPU is running -- CPU_ReadMem(32 bytes @ 0xE0041FD0) - Data: 04 00 00 00 00 00 00 00 00 00 00 00 00 00 00 00 ...  returns 0x00 (0005ms, 0700ms total)
T137C 000:922 JLINK_ReadMemU32(0xE000EF40, 0x0001 Items, ...) -- CPU is running -- CPU_ReadMem(4 bytes @ 0xE000EF40) - Data: 21 00 11 10  returns 0x01 (0003ms, 0703ms total)
T137C 000:925 JLINK_ReadMemU32(0xE000EF44, 0x0001 Items, ...) -- CPU is running -- CPU_ReadMem(4 bytes @ 0xE000EF44) - Data: 11 00 00 11  returns 0x01 (0004ms, 0707ms total)
T137C 000:929 JLINK_ReadMemU32(0xE000ED00, 0x0001 Items, ...) -- CPU is running -- CPU_ReadMem(4 bytes @ 0xE000ED00) - Data: 41 C2 0F 41  returns 0x01 (0003ms, 0710ms total)
T137C 000:932 JLINK_SetResetType(JLINKARM_RESET_TYPE_NORMAL)  returns JLINKARM_RESET_TYPE_NORMAL (0000ms, 0710ms total)
T137C 000:932 JLINK_Reset() -- CPU is running -- CPU_WriteMem(4 bytes @ 0xE000EDF0) -- CPU is running -- CPU_WriteMem(4 bytes @ 0xE000EDFC) >0x35 TIF> -- CPU is running -- CPU_WriteMem(4 bytes @ 0xE000ED0C) -- CPU is running -- CPU_ReadMem(4 bytes @ 0xE000EDF0) -- CPU is running -- CPU_ReadMem(4 bytes @ 0xE000EDF0) -- CPU is running -- CPU_WriteMem(4 bytes @ 0xE000EDF0) -- CPU is running -- CPU_WriteMem(4 bytes @ 0xE000EDFC) -- CPU is running -- CPU_ReadMem(4 bytes @ 0xE000EDF0)
 -- CPU_WriteMem(4 bytes @ 0xE0002000) -- CPU_ReadMem(4 bytes @ 0xE000EDFC) -- CPU_ReadMem(4 bytes @ 0xE0001000) (0085ms, 0795ms total)
T137C 001:017 JLINK_ReadReg(R15 (PC))  returns 0x080009AC (0001ms, 0796ms total)
T137C 001:018 JLINK_ReadReg(XPSR)  returns 0x01000000 (0000ms, 0796ms total)
T137C 001:018 JLINK_Halt()  returns 0x00 (0000ms, 0796ms total)
T137C 001:018 JLINK_IsHalted()  returns TRUE (0000ms, 0796ms total)
T137C 001:018 JLINK_ReadMemU32(0xE000EDF0, 0x0001 Items, ...) -- CPU_ReadMem(4 bytes @ 0xE000EDF0) - Data: 03 00 03 00  returns 0x01 (0003ms, 0799ms total)
T137C 001:021 JLINK_WriteU32(0xE000EDF0, 0xA05F0003) -- CPU_WriteMem(4 bytes @ 0xE000EDF0)  returns 0x00 (0002ms, 0801ms total)
T137C 001:023 JLINK_WriteU32(0xE000EDFC, 0x01000000) -- CPU_WriteMem(4 bytes @ 0xE000EDFC)  returns 0x00 (0002ms, 0803ms total)
T137C 001:026 JLINK_GetHWStatus(...)  returns 0x00 (0000ms, 0803ms total)
T137C 001:027 JLINK_GetNumBPUnits(Type = 0xFFFFFF00)  returns 0x06 (0000ms, 0803ms total)
T137C 001:027 JLINK_GetNumBPUnits(Type = 0xF0)  returns 0x2000 (0000ms, 0803ms total)
T137C 001:027 JLINK_GetNumWPUnits()  returns 0x04 (0000ms, 0803ms total)
T137C 001:028 JLINK_GetSpeed()  returns 0xC8 (0000ms, 0803ms total)
T137C 001:028 JLINK_ReadMemU32(0xE000E004, 0x0001 Items, ...) -- CPU_ReadMem(4 bytes @ 0xE000E004) - Data: 02 00 00 00  returns 0x01 (0004ms, 0807ms total)
T137C 001:032 JLINK_ReadMemU32(0xE000E004, 0x0001 Items, ...) -- CPU_ReadMem(4 bytes @ 0xE000E004) - Data: 02 00 00 00  returns 0x01 (0003ms, 0810ms total)
T137C 001:035 JLINK_WriteMem(0xE0001000, 0x001C Bytes, ...) - Data: 01 00 00 00 00 00 00 00 00 00 00 00 00 00 00 00 ... -- CPU_WriteMem(28 bytes @ 0xE0001000)  returns 0x1C (0005ms, 0815ms total)
T137C 001:040 JLINK_ReadMem (0xE0001000, 0x001C Bytes, ...) -- CPU_ReadMem(28 bytes @ 0xE0001000) - Data: 01 00 00 40 00 00 00 00 00 00 00 00 00 00 00 00 ...  returns 0x00 (0005ms, 0820ms total)
T137C 001:045 JLINK_ReadReg(R15 (PC))  returns 0x080009AC (0000ms, 0820ms total)
T137C 001:045 JLINK_ReadReg(XPSR)  returns 0x01000000 (0000ms, 0820ms total)
T137C 001:139 JLINK_SetResetType(JLINKARM_RESET_TYPE_NORMAL)  returns JLINKARM_RESET_TYPE_NORMAL (0000ms, 0820ms total)
T137C 001:139 JLINK_Reset() -- CPU_WriteMem(4 bytes @ 0xE000EDF0) -- CPU_WriteMem(4 bytes @ 0xE000EDFC) >0x35 TIF> -- CPU_WriteMem(4 bytes @ 0xE000ED0C) -- CPU_ReadMem(4 bytes @ 0xE000EDF0) -- CPU_ReadMem(4 bytes @ 0xE000EDF0) -- CPU_WriteMem(4 bytes @ 0xE000EDF0) -- CPU_WriteMem(4 bytes @ 0xE000EDFC) -- CPU is running -- CPU_ReadMem(4 bytes @ 0xE000EDF0) -- CPU_WriteMem(4 bytes @ 0xE0002000) -- CPU_ReadMem(4 bytes @ 0xE000EDFC) -- CPU_ReadMem(4 bytes @ 0xE0001000) (0088ms, 0908ms total)
T137C 001:227 JLINK_ReadReg(R15 (PC))  returns 0x080009AC (0000ms, 0908ms total)
T137C 001:227 JLINK_ReadReg(XPSR)  returns 0x01000000 (0000ms, 0908ms total)
T137C 002:686 JLINK_ReadMem (0x20000015, 0x0020 Bytes, ...) -- CPU_ReadMem(64 bytes @ 0x20000000) -- Updating C cache (64 bytes @ 0x20000000) -- Read from C cache (32 bytes @ 0x20000015) - Data: AA BB 00 00 00 00 00 00 00 00 00 00 00 00 00 00 ...  returns 0x00 (0007ms, 0915ms total)
T137C 002:697 JLINK_ReadMem (0x20000000, 0x0001 Bytes, ...) -- Read from C cache (1 bytes @ 0x20000000) - Data: 40  returns 0x00 (0000ms, 0915ms total)
T137C 002:701 JLINK_ReadMem (0x20000001, 0x0001 Bytes, ...) -- Read from C cache (1 bytes @ 0x20000001) - Data: 02  returns 0x00 (0000ms, 0915ms total)
T137C 002:717 JLINK_ReadMem (0x20000064, 0x0004 Bytes, ...) -- CPU_ReadMem(64 bytes @ 0x20000040) -- Updating C cache (64 bytes @ 0x20000040) -- Read from C cache (4 bytes @ 0x20000064) - Data: C0 A8 01 69  returns 0x00 (0007ms, 0922ms total)
T137C 002:730 JLINK_ReadMem (0x20000004, 0x0002 Bytes, ...) -- Read from C cache (2 bytes @ 0x20000004) - Data: 00 00  returns 0x00 (0000ms, 0922ms total)
T137C 002:769 JLINK_ReadMem (0x20000010, 0x0001 Bytes, ...) -- Read from C cache (1 bytes @ 0x20000010) - Data: 00  returns 0x00 (0000ms, 0922ms total)
T137C 002:775 JLINK_ReadMem (0x20000035, 0x0001 Bytes, ...) -- Read from C cache (1 bytes @ 0x20000035) - Data: 00  returns 0x00 (0000ms, 0922ms total)
T137C 002:799 JLINK_ReadMem (0x00000000, 0x0001 Bytes, ...) -- CPU_ReadMem(4 bytes @ 0x00000004) -- CPU_ReadMem(64 bytes @ 0x08000000) -- Updating C cache (64 bytes @ 0x08000000) -- Read from C cache (1 bytes @ 0x08000000) - Data: E8  returns 0x00 (0011ms, 0933ms total)
T137C 002:810 JLINK_ReadMem (0x000000E8, 0x01A0 Bytes, ...) -- CPU_ReadMem(512 bytes @ 0x080000C0) -- Updating C cache (512 bytes @ 0x080000C0) -- Read from C cache (416 bytes @ 0x080000E8) - Data: C7 09 00 08 C7 09 00 08 C7 09 00 08 C7 09 00 08 ...  returns 0x00 (0034ms, 0967ms total)
T024C 002:875 JLINK_SetBPEx(Addr = 0x08000274, Type = 0xFFFFFFF2)  returns 0x00000001 (0000ms, 0967ms total)
T024C 002:875 JLINK_SetBPEx(Addr = 0x080006EE, Type = 0xFFFFFFF2)  returns 0x00000002 (0000ms, 0967ms total)
T024C 002:875 JLINK_Go() -- CPU_WriteMem(4 bytes @ 0xE0002000) -- CPU_WriteMem(4 bytes @ 0xE0002000) -- CPU_WriteMem(4 bytes @ 0xE0002008) -- CPU_WriteMem(4 bytes @ 0xE000200C) -- CPU_WriteMem(4 bytes @ 0xE0002010) -- CPU_WriteMem(4 bytes @ 0xE0002014) -- CPU_WriteMem(4 bytes @ 0xE0002018) -- CPU_WriteMem(4 bytes @ 0xE000201C) -- CPU_WriteMem(4 bytes @ 0xE0001004) (0023ms, 0990ms total)
T024C 002:998 JLINK_IsHalted()  returns TRUE (0047ms, 1037ms total)
T024C 003:046 JLINK_Halt()  returns 0x00 (0000ms, 0990ms total)
T024C 003:046 JLINK_IsHalted()  returns TRUE (0000ms, 0990ms total)
T024C 003:046 JLINK_IsHalted()  returns TRUE (0000ms, 0990ms total)
T024C 003:046 JLINK_IsHalted()  returns TRUE (0000ms, 0990ms total)
T024C 003:046 JLINK_ReadReg(R15 (PC))  returns 0x08000274 (0000ms, 0990ms total)
T024C 003:046 JLINK_ReadReg(XPSR)  returns 0x61000000 (0000ms, 0990ms total)
T024C 003:046 JLINK_ClrBPEx(BPHandle = 0x00000001)  returns 0x00 (0000ms, 0990ms total)
T024C 003:046 JLINK_ClrBPEx(BPHandle = 0x00000002)  returns 0x00 (0000ms, 0990ms total)
T024C 003:046 JLINK_ReadMemU32(0xE000ED30, 0x0001 Items, ...) -- CPU_ReadMem(4 bytes @ 0xE000ED30) - Data: 03 00 00 00  returns 0x01 (0003ms, 0993ms total)
T024C 003:049 JLINK_ReadMemU32(0xE0001028, 0x0001 Items, ...) -- CPU_ReadMem(4 bytes @ 0xE0001028) - Data: 00 00 00 00  returns 0x01 (0003ms, 0996ms total)
T024C 003:052 JLINK_ReadMemU32(0xE0001038, 0x0001 Items, ...) -- CPU_ReadMem(4 bytes @ 0xE0001038) - Data: 00 02 00 00  returns 0x01 (0004ms, 1000ms total)
T024C 003:056 JLINK_ReadMemU32(0xE0001048, 0x0001 Items, ...) -- CPU_ReadMem(4 bytes @ 0xE0001048) - Data: 00 00 00 00  returns 0x01 (0003ms, 1003ms total)
T024C 003:059 JLINK_ReadMemU32(0xE0001058, 0x0001 Items, ...) -- CPU_ReadMem(4 bytes @ 0xE0001058) - Data: 00 00 00 00  returns 0x01 (0004ms, 1007ms total)
T024C 003:063 JLINK_ReadReg(R0)  returns 0x08000275 (0000ms, 1007ms total)
T024C 003:063 JLINK_ReadReg(R1)  returns 0x200004E8 (0000ms, 1007ms total)
T024C 003:063 JLINK_ReadReg(R2)  returns 0x00000000 (0000ms, 1007ms total)
T024C 003:063 JLINK_ReadReg(R3)  returns 0x08003A71 (0000ms, 1007ms total)
T024C 003:063 JLINK_ReadReg(R4)  returns 0x08003F04 (0000ms, 1007ms total)
T024C 003:063 JLINK_ReadReg(R5)  returns 0x08003F04 (0000ms, 1007ms total)
T024C 003:063 JLINK_ReadReg(R6)  returns 0x00000000 (0000ms, 1007ms total)
T024C 003:063 JLINK_ReadReg(R7)  returns 0x00000000 (0000ms, 1007ms total)
T024C 003:063 JLINK_ReadReg(R8)  returns 0x00000000 (0000ms, 1007ms total)
T024C 003:063 JLINK_ReadReg(R9)  returns 0x00000000 (0000ms, 1007ms total)
T024C 003:063 JLINK_ReadReg(R10)  returns 0x00000000 (0000ms, 1007ms total)
T024C 003:063 JLINK_ReadReg(R11)  returns 0x00000000 (0000ms, 1007ms total)
T024C 003:063 JLINK_ReadReg(R12)  returns 0x00000000 (0000ms, 1007ms total)
T024C 003:063 JLINK_ReadReg(R13 (SP))  returns 0x200004E8 (0000ms, 1007ms total)
T024C 003:063 JLINK_ReadReg(R14)  returns 0x08003A39 (0000ms, 1007ms total)
T024C 003:063 JLINK_ReadReg(R15 (PC))  returns 0x08000274 (0000ms, 1007ms total)
T024C 003:063 JLINK_ReadReg(XPSR)  returns 0x61000000 (0000ms, 1007ms total)
T024C 003:063 JLINK_ReadReg(MSP)  returns 0x200004E8 (0000ms, 1007ms total)
T024C 003:063 JLINK_ReadReg(PSP)  returns 0x00000000 (0000ms, 1007ms total)
T024C 003:063 JLINK_ReadReg(CFBP)  returns 0x00000000 (0000ms, 1007ms total)
T024C 003:063 JLINK_ReadReg(FPSCR)  returns 0x00000000 (0077ms, 1084ms total)
T024C 003:140 JLINK_ReadReg(FPS0)  returns 0x00000000 (0000ms, 1084ms total)
T024C 003:140 JLINK_ReadReg(FPS1)  returns 0x00000000 (0000ms, 1084ms total)
T024C 003:140 JLINK_ReadReg(FPS2)  returns 0x00000000 (0000ms, 1084ms total)
T024C 003:140 JLINK_ReadReg(FPS3)  returns 0x00000000 (0000ms, 1084ms total)
T024C 003:140 JLINK_ReadReg(FPS4)  returns 0x00000000 (0001ms, 1085ms total)
T024C 003:141 JLINK_ReadReg(FPS5)  returns 0x00000000 (0000ms, 1085ms total)
T024C 003:141 JLINK_ReadReg(FPS6)  returns 0x00000000 (0000ms, 1085ms total)
T024C 003:141 JLINK_ReadReg(FPS7)  returns 0x00000000 (0000ms, 1085ms total)
T024C 003:141 JLINK_ReadReg(FPS8)  returns 0x00000000 (0000ms, 1085ms total)
T024C 003:141 JLINK_ReadReg(FPS9)  returns 0x00000000 (0000ms, 1085ms total)
T024C 003:141 JLINK_ReadReg(FPS10)  returns 0x00000000 (0000ms, 1085ms total)
T024C 003:141 JLINK_ReadReg(FPS11)  returns 0x00000000 (0000ms, 1085ms total)
T024C 003:141 JLINK_ReadReg(FPS12)  returns 0x00000000 (0000ms, 1085ms total)
T024C 003:141 JLINK_ReadReg(FPS13)  returns 0x00000000 (0000ms, 1085ms total)
T024C 003:141 JLINK_ReadReg(FPS14)  returns 0x00000000 (0000ms, 1085ms total)
T024C 003:141 JLINK_ReadReg(FPS15)  returns 0x00000000 (0000ms, 1085ms total)
T024C 003:141 JLINK_ReadReg(FPS16)  returns 0x00000000 (0000ms, 1085ms total)
T024C 003:141 JLINK_ReadReg(FPS17)  returns 0x00000000 (0000ms, 1085ms total)
T024C 003:141 JLINK_ReadReg(FPS18)  returns 0x00000000 (0000ms, 1085ms total)
T024C 003:141 JLINK_ReadReg(FPS19)  returns 0x00000000 (0000ms, 1085ms total)
T024C 003:141 JLINK_ReadReg(FPS20)  returns 0x00000000 (0000ms, 1085ms total)
T024C 003:141 JLINK_ReadReg(FPS21)  returns 0x00000000 (0000ms, 1085ms total)
T024C 003:141 JLINK_ReadReg(FPS22)  returns 0x00000000 (0000ms, 1085ms total)
T024C 003:141 JLINK_ReadReg(FPS23)  returns 0x00000000 (0000ms, 1085ms total)
T024C 003:141 JLINK_ReadReg(FPS24)  returns 0x00000000 (0000ms, 1085ms total)
T024C 003:141 JLINK_ReadReg(FPS25)  returns 0x00000000 (0000ms, 1085ms total)
T024C 003:141 JLINK_ReadReg(FPS26)  returns 0x00000000 (0000ms, 1085ms total)
T024C 003:141 JLINK_ReadReg(FPS27)  returns 0x00000000 (0000ms, 1085ms total)
T024C 003:141 JLINK_ReadReg(FPS28)  returns 0x00000000 (0000ms, 1085ms total)
T024C 003:141 JLINK_ReadReg(FPS29)  returns 0x00000000 (0000ms, 1085ms total)
T024C 003:141 JLINK_ReadReg(FPS30)  returns 0x00000000 (0000ms, 1085ms total)
T024C 003:141 JLINK_ReadReg(FPS31)  returns 0x00000000 (0000ms, 1085ms total)
T137C 003:143 JLINK_ReadMem (0x20000015, 0x0020 Bytes, ...) -- CPU_ReadMem(64 bytes @ 0x20000000) -- Updating C cache (64 bytes @ 0x20000000) -- Read from C cache (32 bytes @ 0x20000015) - Data: AA BB 00 00 00 00 00 00 00 00 00 00 00 00 00 00 ...  returns 0x00 (0007ms, 1092ms total)
T137C 003:150 JLINK_ReadMem (0x20000000, 0x0001 Bytes, ...) -- Read from C cache (1 bytes @ 0x20000000) - Data: 40  returns 0x00 (0000ms, 1092ms total)
T137C 003:150 JLINK_ReadMem (0x20000001, 0x0001 Bytes, ...) -- Read from C cache (1 bytes @ 0x20000001) - Data: 02  returns 0x00 (0000ms, 1092ms total)
T137C 003:150 JLINK_ReadMem (0x20000064, 0x0004 Bytes, ...) -- CPU_ReadMem(64 bytes @ 0x20000040) -- Updating C cache (64 bytes @ 0x20000040) -- Read from C cache (4 bytes @ 0x20000064) - Data: C0 A8 01 69  returns 0x00 (0007ms, 1099ms total)
T137C 003:157 JLINK_ReadMem (0x20000004, 0x0002 Bytes, ...) -- Read from C cache (2 bytes @ 0x20000004) - Data: 00 00  returns 0x00 (0000ms, 1099ms total)
T137C 003:159 JLINK_ReadMem (0x20000010, 0x0001 Bytes, ...) -- Read from C cache (1 bytes @ 0x20000010) - Data: 00  returns 0x00 (0000ms, 1099ms total)
T137C 003:159 JLINK_ReadMem (0x20000035, 0x0001 Bytes, ...) -- Read from C cache (1 bytes @ 0x20000035) - Data: 00  returns 0x00 (0000ms, 1099ms total)
T024C 003:727 JLINK_SetBPEx(Addr = 0x080006EE, Type = 0xFFFFFFF2)  returns 0x00000003 (0001ms, 1100ms total)
T024C 003:728 JLINK_Go() -- CPU_WriteMem(4 bytes @ 0xE0002000) -- CPU_WriteMem(4 bytes @ 0xE0002008) -- CPU_WriteMem(4 bytes @ 0xE000200C) (0012ms, 1112ms total)
T024C 003:840 JLINK_IsHalted()  returns TRUE (0047ms, 1159ms total)
T024C 003:887 JLINK_Halt()  returns 0x00 (0000ms, 1112ms total)
T024C 003:887 JLINK_IsHalted()  returns TRUE (0000ms, 1112ms total)
T024C 003:887 JLINK_IsHalted()  returns TRUE (0000ms, 1112ms total)
T024C 003:887 JLINK_IsHalted()  returns TRUE (0000ms, 1112ms total)
T024C 003:887 JLINK_ReadReg(R15 (PC))  returns 0x080006EE (0000ms, 1112ms total)
T024C 003:887 JLINK_ReadReg(XPSR)  returns 0x4100002E (0000ms, 1112ms total)
T024C 003:887 JLINK_ClrBPEx(BPHandle = 0x00000003)  returns 0x00 (0000ms, 1112ms total)
T024C 003:887 JLINK_ReadMemU32(0xE000ED30, 0x0001 Items, ...) -- CPU_ReadMem(4 bytes @ 0xE000ED30) - Data: 03 00 00 00  returns 0x01 (0004ms, 1116ms total)
T024C 003:891 JLINK_ReadMemU32(0xE0001028, 0x0001 Items, ...) -- CPU_ReadMem(4 bytes @ 0xE0001028) - Data: 00 00 00 00  returns 0x01 (0003ms, 1119ms total)
T024C 003:894 JLINK_ReadMemU32(0xE0001038, 0x0001 Items, ...) -- CPU_ReadMem(4 bytes @ 0xE0001038) - Data: 00 02 00 00  returns 0x01 (0003ms, 1122ms total)
T024C 003:897 JLINK_ReadMemU32(0xE0001048, 0x0001 Items, ...) -- CPU_ReadMem(4 bytes @ 0xE0001048) - Data: 00 00 00 00  returns 0x01 (0004ms, 1126ms total)
T024C 003:901 JLINK_ReadMemU32(0xE0001058, 0x0001 Items, ...) -- CPU_ReadMem(4 bytes @ 0xE0001058) - Data: 00 00 00 00  returns 0x01 (0004ms, 1130ms total)
T024C 003:905 JLINK_ReadReg(R0)  returns 0xE000E000 (0000ms, 1130ms total)
T024C 003:905 JLINK_ReadReg(R1)  returns 0x0000001E (0000ms, 1130ms total)
T024C 003:905 JLINK_ReadReg(R2)  returns 0x00000070 (0000ms, 1130ms total)
T024C 003:905 JLINK_ReadReg(R3)  returns 0x40000000 (0000ms, 1130ms total)
T024C 003:905 JLINK_ReadReg(R4)  returns 0x00000004 (0000ms, 1130ms total)
T024C 003:905 JLINK_ReadReg(R5)  returns 0x00000007 (0000ms, 1130ms total)
T024C 003:905 JLINK_ReadReg(R6)  returns 0x00000000 (0000ms, 1130ms total)
T024C 003:905 JLINK_ReadReg(R7)  returns 0x00000000 (0000ms, 1130ms total)
T024C 003:905 JLINK_ReadReg(R8)  returns 0x00000000 (0001ms, 1131ms total)
T024C 003:906 JLINK_ReadReg(R9)  returns 0x00000000 (0000ms, 1131ms total)
T024C 003:906 JLINK_ReadReg(R10)  returns 0x00000000 (0000ms, 1131ms total)
T024C 003:906 JLINK_ReadReg(R11)  returns 0x00000000 (0000ms, 1131ms total)
T024C 003:906 JLINK_ReadReg(R12)  returns 0x00000000 (0000ms, 1131ms total)
T024C 003:906 JLINK_ReadReg(R13 (SP))  returns 0x20000490 (0000ms, 1131ms total)
T024C 003:906 JLINK_ReadReg(R14)  returns 0xFFFFFFF9 (0000ms, 1131ms total)
T024C 003:906 JLINK_ReadReg(R15 (PC))  returns 0x080006EE (0000ms, 1131ms total)
T024C 003:906 JLINK_ReadReg(XPSR)  returns 0x4100002E (0000ms, 1131ms total)
T024C 003:906 JLINK_ReadReg(MSP)  returns 0x20000490 (0000ms, 1131ms total)
T024C 003:906 JLINK_ReadReg(PSP)  returns 0x00000000 (0000ms, 1131ms total)
T024C 003:906 JLINK_ReadReg(CFBP)  returns 0x00000000 (0000ms, 1131ms total)
T024C 003:906 JLINK_ReadReg(FPSCR)  returns 0x00000000 (0077ms, 1208ms total)
T024C 003:983 JLINK_ReadReg(FPS0)  returns 0x00000000 (0000ms, 1208ms total)
T024C 003:983 JLINK_ReadReg(FPS1)  returns 0x00000000 (0000ms, 1208ms total)
T024C 003:983 JLINK_ReadReg(FPS2)  returns 0x00000000 (0000ms, 1208ms total)
T024C 003:983 JLINK_ReadReg(FPS3)  returns 0x00000000 (0000ms, 1208ms total)
T024C 003:983 JLINK_ReadReg(FPS4)  returns 0x00000000 (0000ms, 1208ms total)
T024C 003:983 JLINK_ReadReg(FPS5)  returns 0x00000000 (0000ms, 1208ms total)
T024C 003:983 JLINK_ReadReg(FPS6)  returns 0x00000000 (0000ms, 1208ms total)
T024C 003:983 JLINK_ReadReg(FPS7)  returns 0x00000000 (0000ms, 1208ms total)
T024C 003:983 JLINK_ReadReg(FPS8)  returns 0x00000000 (0000ms, 1208ms total)
T024C 003:983 JLINK_ReadReg(FPS9)  returns 0x00000000 (0000ms, 1208ms total)
T024C 003:983 JLINK_ReadReg(FPS10)  returns 0x00000000 (0000ms, 1208ms total)
T024C 003:983 JLINK_ReadReg(FPS11)  returns 0x00000000 (0000ms, 1208ms total)
T024C 003:983 JLINK_ReadReg(FPS12)  returns 0x00000000 (0000ms, 1208ms total)
T024C 003:983 JLINK_ReadReg(FPS13)  returns 0x00000000 (0001ms, 1209ms total)
T024C 003:984 JLINK_ReadReg(FPS14)  returns 0x00000000 (0000ms, 1209ms total)
T024C 003:984 JLINK_ReadReg(FPS15)  returns 0x00000000 (0000ms, 1209ms total)
T024C 003:984 JLINK_ReadReg(FPS16)  returns 0x00000000 (0000ms, 1209ms total)
T024C 003:984 JLINK_ReadReg(FPS17)  returns 0x00000000 (0000ms, 1209ms total)
T024C 003:984 JLINK_ReadReg(FPS18)  returns 0x00000000 (0000ms, 1209ms total)
T024C 003:984 JLINK_ReadReg(FPS19)  returns 0x00000000 (0000ms, 1209ms total)
T024C 003:984 JLINK_ReadReg(FPS20)  returns 0x00000000 (0000ms, 1209ms total)
T024C 003:984 JLINK_ReadReg(FPS21)  returns 0x00000000 (0000ms, 1209ms total)
T024C 003:984 JLINK_ReadReg(FPS22)  returns 0x00000000 (0000ms, 1209ms total)
T024C 003:984 JLINK_ReadReg(FPS23)  returns 0x00000000 (0000ms, 1209ms total)
T024C 003:984 JLINK_ReadReg(FPS24)  returns 0x00000000 (0000ms, 1209ms total)
T024C 003:984 JLINK_ReadReg(FPS25)  returns 0x00000000 (0000ms, 1209ms total)
T024C 003:984 JLINK_ReadReg(FPS26)  returns 0x00000000 (0000ms, 1209ms total)
T024C 003:984 JLINK_ReadReg(FPS27)  returns 0x00000000 (0000ms, 1209ms total)
T024C 003:984 JLINK_ReadReg(FPS28)  returns 0x00000000 (0000ms, 1209ms total)
T024C 003:984 JLINK_ReadReg(FPS29)  returns 0x00000000 (0000ms, 1209ms total)
T024C 003:984 JLINK_ReadReg(FPS30)  returns 0x00000000 (0000ms, 1209ms total)
T024C 003:984 JLINK_ReadReg(FPS31)  returns 0x00000000 (0000ms, 1209ms total)
T137C 003:984 JLINK_ReadMem (0x20000494, 0x0004 Bytes, ...) -- CPU_ReadMem(64 bytes @ 0x20000480) -- Updating C cache (64 bytes @ 0x20000480) -- Read from C cache (4 bytes @ 0x20000494) - Data: F9 FF FF FF  returns 0x00 (0008ms, 1217ms total)
T137C 003:992 JLINK_ReadMem (0x200004B0, 0x0004 Bytes, ...) -- Read from C cache (4 bytes @ 0x200004B0) - Data: 50 09 00 08  returns 0x00 (0000ms, 1217ms total)
T137C 003:992 JLINK_ReadMem (0x200004B4, 0x0004 Bytes, ...) -- Read from C cache (4 bytes @ 0x200004B4) - Data: 00 02 00 41  returns 0x00 (0000ms, 1217ms total)
T137C 003:992 JLINK_ReadMem (0x200004AC, 0x0004 Bytes, ...) -- Read from C cache (4 bytes @ 0x200004AC) - Data: EB 06 00 08  returns 0x00 (0000ms, 1217ms total)
T137C 003:992 JLINK_ReadMem (0xE000ED28, 0x0004 Bytes, ...) -- CPU_ReadMem(4 bytes @ 0xE000ED28) - Data: 00 00 00 00  returns 0x00 (0003ms, 1220ms total)
T137C 003:996 JLINK_ReadMem (0x200004C0, 0x0004 Bytes, ...) -- CPU_ReadMem(64 bytes @ 0x200004C0) -- Updating C cache (64 bytes @ 0x200004C0) -- Read from C cache (4 bytes @ 0x200004C0) - Data: 40 1F 00 00  returns 0x00 (0007ms, 1227ms total)
T137C 004:003 JLINK_ReadMem (0x200004B8, 0x0004 Bytes, ...) -- Read from C cache (4 bytes @ 0x200004B8) - Data: 00 00 04 01  returns 0x00 (0000ms, 1227ms total)
T137C 004:003 JLINK_ReadMem (0x200004BC, 0x0004 Bytes, ...) -- Read from C cache (4 bytes @ 0x200004BC) - Data: 00 08 00 40  returns 0x00 (0001ms, 1228ms total)
T137C 004:004 JLINK_ReadMem (0x20000015, 0x0020 Bytes, ...) -- CPU_ReadMem(64 bytes @ 0x20000000) -- Updating C cache (64 bytes @ 0x20000000) -- Read from C cache (32 bytes @ 0x20000015) - Data: AA BB 00 00 00 00 00 00 00 00 00 00 00 00 00 00 ...  returns 0x00 (0008ms, 1236ms total)
T137C 004:012 JLINK_ReadMem (0x20000000, 0x0001 Bytes, ...) -- Read from C cache (1 bytes @ 0x20000000) - Data: 40  returns 0x00 (0000ms, 1236ms total)
T137C 004:012 JLINK_ReadMem (0x20000001, 0x0001 Bytes, ...) -- Read from C cache (1 bytes @ 0x20000001) - Data: 02  returns 0x00 (0000ms, 1236ms total)
T137C 004:012 JLINK_ReadMem (0x20000064, 0x0004 Bytes, ...) -- CPU_ReadMem(64 bytes @ 0x20000040) -- Updating C cache (64 bytes @ 0x20000040) -- Read from C cache (4 bytes @ 0x20000064) - Data: C0 A8 01 69  returns 0x00 (0007ms, 1243ms total)
T137C 004:019 JLINK_ReadMem (0x20000004, 0x0002 Bytes, ...) -- Read from C cache (2 bytes @ 0x20000004) - Data: 00 00  returns 0x00 (0000ms, 1243ms total)
T137C 004:021 JLINK_ReadMem (0x20000010, 0x0001 Bytes, ...) -- Read from C cache (1 bytes @ 0x20000010) - Data: 00  returns 0x00 (0000ms, 1243ms total)
T137C 004:021 JLINK_ReadMem (0x20000035, 0x0001 Bytes, ...) -- Read from C cache (1 bytes @ 0x20000035) - Data: 00  returns 0x00 (0000ms, 1243ms total)
T024C 004:649 JLINK_Step() -- CPU_ReadMem(64 bytes @ 0x080006C0) -- Updating C cache (64 bytes @ 0x080006C0) -- Read from C cache (2 bytes @ 0x080006EE) -- CPU_ReadMem(4 bytes @ 0xE0001004) -- CPU_ReadMem(64 bytes @ 0x08000700) -- Updating C cache (64 bytes @ 0x08000700) -- Read from C cache (4 bytes @ 0x08000710) -- Simulated  returns 0x00 (0022ms, 1265ms total)
T024C 004:671 JLINK_ReadReg(R15 (PC))  returns 0x080006F0 (0000ms, 1265ms total)
T024C 004:671 JLINK_ReadReg(XPSR)  returns 0x4100002E (0000ms, 1265ms total)
T024C 004:671 JLINK_SetBPEx(Addr = 0x080006EE, Type = 0xFFFFFFF2)  returns 0x00000004 (0000ms, 1265ms total)
T024C 004:671 JLINK_Go() -- CPU_WriteMem(4 bytes @ 0xE0002000) -- CPU_WriteMem(4 bytes @ 0xE0001004) (0012ms, 1277ms total)
T024C 004:783 JLINK_IsHalted()  returns TRUE (0048ms, 1325ms total)
T024C 004:831 JLINK_Halt()  returns 0x00 (0000ms, 1277ms total)
T024C 004:831 JLINK_IsHalted()  returns TRUE (0000ms, 1277ms total)
T024C 004:831 JLINK_IsHalted()  returns TRUE (0000ms, 1277ms total)
T024C 004:831 JLINK_IsHalted()  returns TRUE (0000ms, 1277ms total)
T024C 004:831 JLINK_ReadReg(R15 (PC))  returns 0x080006EE (0000ms, 1277ms total)
T024C 004:831 JLINK_ReadReg(XPSR)  returns 0xA100002E (0000ms, 1277ms total)
T024C 004:831 JLINK_ClrBPEx(BPHandle = 0x00000004)  returns 0x00 (0000ms, 1277ms total)
T024C 004:831 JLINK_ReadMemU32(0xE000ED30, 0x0001 Items, ...) -- CPU_ReadMem(4 bytes @ 0xE000ED30) - Data: 03 00 00 00  returns 0x01 (0004ms, 1281ms total)
T024C 004:835 JLINK_ReadMemU32(0xE0001028, 0x0001 Items, ...) -- CPU_ReadMem(4 bytes @ 0xE0001028) - Data: 00 00 00 00  returns 0x01 (0004ms, 1285ms total)
T024C 004:839 JLINK_ReadMemU32(0xE0001038, 0x0001 Items, ...) -- CPU_ReadMem(4 bytes @ 0xE0001038) - Data: 00 02 00 00  returns 0x01 (0004ms, 1289ms total)
T024C 004:843 JLINK_ReadMemU32(0xE0001048, 0x0001 Items, ...) -- CPU_ReadMem(4 bytes @ 0xE0001048) - Data: 00 00 00 00  returns 0x01 (0003ms, 1292ms total)
T024C 004:846 JLINK_ReadMemU32(0xE0001058, 0x0001 Items, ...) -- CPU_ReadMem(4 bytes @ 0xE0001058) - Data: 00 00 00 00  returns 0x01 (0004ms, 1296ms total)
T024C 004:851 JLINK_ReadReg(R0)  returns 0x40000800 (0000ms, 1296ms total)
T024C 004:851 JLINK_ReadReg(R1)  returns 0xFFFFFFFE (0000ms, 1296ms total)
T024C 004:851 JLINK_ReadReg(R2)  returns 0x000000C0 (0000ms, 1296ms total)
T024C 004:851 JLINK_ReadReg(R3)  returns 0x0800057F (0000ms, 1296ms total)
T024C 004:851 JLINK_ReadReg(R4)  returns 0x00000004 (0000ms, 1296ms total)
T024C 004:851 JLINK_ReadReg(R5)  returns 0x00000007 (0000ms, 1296ms total)
T024C 004:851 JLINK_ReadReg(R6)  returns 0x00000000 (0000ms, 1296ms total)
T024C 004:851 JLINK_ReadReg(R7)  returns 0x00000000 (0000ms, 1296ms total)
T024C 004:851 JLINK_ReadReg(R8)  returns 0x00000000 (0000ms, 1296ms total)
T024C 004:851 JLINK_ReadReg(R9)  returns 0x00000000 (0000ms, 1296ms total)
T024C 004:851 JLINK_ReadReg(R10)  returns 0x00000000 (0000ms, 1296ms total)
T024C 004:851 JLINK_ReadReg(R11)  returns 0x00000000 (0000ms, 1296ms total)
T024C 004:851 JLINK_ReadReg(R12)  returns 0x00000000 (0000ms, 1296ms total)
T024C 004:851 JLINK_ReadReg(R13 (SP))  returns 0x20000490 (0000ms, 1296ms total)
T024C 004:851 JLINK_ReadReg(R14)  returns 0xFFFFFFF9 (0000ms, 1296ms total)
T024C 004:851 JLINK_ReadReg(R15 (PC))  returns 0x080006EE (0000ms, 1296ms total)
T024C 004:851 JLINK_ReadReg(XPSR)  returns 0xA100002E (0000ms, 1296ms total)
T024C 004:851 JLINK_ReadReg(MSP)  returns 0x20000490 (0000ms, 1296ms total)
T024C 004:851 JLINK_ReadReg(PSP)  returns 0x00000000 (0000ms, 1296ms total)
T024C 004:851 JLINK_ReadReg(CFBP)  returns 0x00000000 (0000ms, 1296ms total)
T024C 004:851 JLINK_ReadReg(FPSCR)  returns 0x00000000 (0078ms, 1374ms total)
T024C 004:929 JLINK_ReadReg(FPS0)  returns 0x00000000 (0000ms, 1374ms total)
T024C 004:929 JLINK_ReadReg(FPS1)  returns 0x00000000 (0000ms, 1374ms total)
T024C 004:929 JLINK_ReadReg(FPS2)  returns 0x00000000 (0000ms, 1374ms total)
T024C 004:929 JLINK_ReadReg(FPS3)  returns 0x00000000 (0000ms, 1374ms total)
T024C 004:929 JLINK_ReadReg(FPS4)  returns 0x00000000 (0000ms, 1374ms total)
T024C 004:929 JLINK_ReadReg(FPS5)  returns 0x00000000 (0000ms, 1374ms total)
T024C 004:929 JLINK_ReadReg(FPS6)  returns 0x00000000 (0000ms, 1374ms total)
T024C 004:929 JLINK_ReadReg(FPS7)  returns 0x00000000 (0000ms, 1374ms total)
T024C 004:929 JLINK_ReadReg(FPS8)  returns 0x00000000 (0000ms, 1374ms total)
T024C 004:929 JLINK_ReadReg(FPS9)  returns 0x00000000 (0000ms, 1374ms total)
T024C 004:929 JLINK_ReadReg(FPS10)  returns 0x00000000 (0000ms, 1374ms total)
T024C 004:929 JLINK_ReadReg(FPS11)  returns 0x00000000 (0000ms, 1374ms total)
T024C 004:929 JLINK_ReadReg(FPS12)  returns 0x00000000 (0000ms, 1374ms total)
T024C 004:929 JLINK_ReadReg(FPS13)  returns 0x00000000 (0000ms, 1374ms total)
T024C 004:929 JLINK_ReadReg(FPS14)  returns 0x00000000 (0000ms, 1374ms total)
T024C 004:929 JLINK_ReadReg(FPS15)  returns 0x00000000 (0000ms, 1374ms total)
T024C 004:929 JLINK_ReadReg(FPS16)  returns 0x00000000 (0000ms, 1374ms total)
T024C 004:929 JLINK_ReadReg(FPS17)  returns 0x00000000 (0000ms, 1374ms total)
T024C 004:929 JLINK_ReadReg(FPS18)  returns 0x00000000 (0000ms, 1374ms total)
T024C 004:929 JLINK_ReadReg(FPS19)  returns 0x00000000 (0000ms, 1374ms total)
T024C 004:929 JLINK_ReadReg(FPS20)  returns 0x00000000 (0000ms, 1374ms total)
T024C 004:929 JLINK_ReadReg(FPS21)  returns 0x00000000 (0000ms, 1374ms total)
T024C 004:929 JLINK_ReadReg(FPS22)  returns 0x00000000 (0000ms, 1374ms total)
T024C 004:929 JLINK_ReadReg(FPS23)  returns 0x00000000 (0000ms, 1374ms total)
T024C 004:929 JLINK_ReadReg(FPS24)  returns 0x00000000 (0001ms, 1375ms total)
T024C 004:930 JLINK_ReadReg(FPS25)  returns 0x00000000 (0000ms, 1375ms total)
T024C 004:930 JLINK_ReadReg(FPS26)  returns 0x00000000 (0000ms, 1375ms total)
T024C 004:930 JLINK_ReadReg(FPS27)  returns 0x00000000 (0000ms, 1375ms total)
T024C 004:930 JLINK_ReadReg(FPS28)  returns 0x00000000 (0000ms, 1375ms total)
T024C 004:930 JLINK_ReadReg(FPS29)  returns 0x00000000 (0000ms, 1375ms total)
T024C 004:930 JLINK_ReadReg(FPS30)  returns 0x00000000 (0000ms, 1375ms total)
T024C 004:930 JLINK_ReadReg(FPS31)  returns 0x00000000 (0000ms, 1375ms total)
T137C 004:930 JLINK_ReadMem (0x20000494, 0x0004 Bytes, ...) -- CPU_ReadMem(64 bytes @ 0x20000480) -- Updating C cache (64 bytes @ 0x20000480) -- Read from C cache (4 bytes @ 0x20000494) - Data: F9 FF FF FF  returns 0x00 (0008ms, 1383ms total)
T137C 004:938 JLINK_ReadMem (0x200004B0, 0x0004 Bytes, ...) -- Read from C cache (4 bytes @ 0x200004B0) - Data: 50 09 00 08  returns 0x00 (0000ms, 1383ms total)
T137C 004:938 JLINK_ReadMem (0x200004B4, 0x0004 Bytes, ...) -- Read from C cache (4 bytes @ 0x200004B4) - Data: 00 02 00 41  returns 0x00 (0000ms, 1383ms total)
T137C 004:938 JLINK_ReadMem (0x200004AC, 0x0004 Bytes, ...) -- Read from C cache (4 bytes @ 0x200004AC) - Data: EB 06 00 08  returns 0x00 (0000ms, 1383ms total)
T137C 004:938 JLINK_ReadMem (0xE000ED28, 0x0004 Bytes, ...) -- CPU_ReadMem(4 bytes @ 0xE000ED28) - Data: 00 00 00 00  returns 0x00 (0003ms, 1386ms total)
T137C 004:941 JLINK_ReadMem (0x200004C0, 0x0004 Bytes, ...) -- CPU_ReadMem(64 bytes @ 0x200004C0) -- Updating C cache (64 bytes @ 0x200004C0) -- Read from C cache (4 bytes @ 0x200004C0) - Data: 40 1F 00 00  returns 0x00 (0008ms, 1394ms total)
T137C 004:949 JLINK_ReadMem (0x200004B8, 0x0004 Bytes, ...) -- Read from C cache (4 bytes @ 0x200004B8) - Data: 00 00 04 01  returns 0x00 (0000ms, 1394ms total)
T137C 004:949 JLINK_ReadMem (0x200004BC, 0x0004 Bytes, ...) -- Read from C cache (4 bytes @ 0x200004BC) - Data: 00 08 00 40  returns 0x00 (0000ms, 1394ms total)
T137C 004:949 JLINK_ReadMem (0x20000015, 0x0020 Bytes, ...) -- CPU_ReadMem(64 bytes @ 0x20000000) -- Updating C cache (64 bytes @ 0x20000000) -- Read from C cache (32 bytes @ 0x20000015) - Data: AA BB 00 00 00 00 00 00 00 00 00 00 00 00 00 00 ...  returns 0x00 (0007ms, 1401ms total)
T137C 004:956 JLINK_ReadMem (0x20000000, 0x0001 Bytes, ...) -- Read from C cache (1 bytes @ 0x20000000) - Data: 40  returns 0x00 (0000ms, 1401ms total)
T137C 004:956 JLINK_ReadMem (0x20000001, 0x0001 Bytes, ...) -- Read from C cache (1 bytes @ 0x20000001) - Data: 02  returns 0x00 (0000ms, 1401ms total)
T137C 004:956 JLINK_ReadMem (0x20000064, 0x0004 Bytes, ...) -- CPU_ReadMem(64 bytes @ 0x20000040) -- Updating C cache (64 bytes @ 0x20000040) -- Read from C cache (4 bytes @ 0x20000064) - Data: C0 A8 01 69  returns 0x00 (0008ms, 1409ms total)
T137C 004:964 JLINK_ReadMem (0x20000004, 0x0002 Bytes, ...) -- Read from C cache (2 bytes @ 0x20000004) - Data: 00 00  returns 0x00 (0000ms, 1409ms total)
T137C 004:965 JLINK_ReadMem (0x20000010, 0x0001 Bytes, ...) -- Read from C cache (1 bytes @ 0x20000010) - Data: 00  returns 0x00 (0000ms, 1409ms total)
T137C 004:965 JLINK_ReadMem (0x20000035, 0x0001 Bytes, ...) -- Read from C cache (1 bytes @ 0x20000035) - Data: 00  returns 0x00 (0000ms, 1409ms total)
T024C 005:513 JLINK_Step() -- CPU_ReadMem(64 bytes @ 0x080006C0) -- Updating C cache (64 bytes @ 0x080006C0) -- Read from C cache (2 bytes @ 0x080006EE) -- CPU_ReadMem(4 bytes @ 0xE0001004) -- CPU_ReadMem(64 bytes @ 0x08000700) -- Updating C cache (64 bytes @ 0x08000700) -- Read from C cache (4 bytes @ 0x08000710) -- Simulated  returns 0x00 (0022ms, 1431ms total)
T024C 005:535 JLINK_ReadReg(R15 (PC))  returns 0x080006F0 (0000ms, 1431ms total)
T024C 005:535 JLINK_ReadReg(XPSR)  returns 0xA100002E (0000ms, 1431ms total)
T024C 005:535 JLINK_SetBPEx(Addr = 0x080006EE, Type = 0xFFFFFFF2)  returns 0x00000005 (0000ms, 1431ms total)
T024C 005:535 JLINK_Go() -- CPU_WriteMem(4 bytes @ 0xE0002000) -- CPU_WriteMem(4 bytes @ 0xE0001004) (0011ms, 1442ms total)
T024C 005:646 JLINK_IsHalted()  returns TRUE (0047ms, 1489ms total)
T024C 005:693 JLINK_Halt()  returns 0x00 (0000ms, 1442ms total)
T024C 005:693 JLINK_IsHalted()  returns TRUE (0000ms, 1442ms total)
T024C 005:693 JLINK_IsHalted()  returns TRUE (0000ms, 1442ms total)
T024C 005:693 JLINK_IsHalted()  returns TRUE (0000ms, 1442ms total)
T024C 005:693 JLINK_ReadReg(R15 (PC))  returns 0x080006EE (0000ms, 1442ms total)
T024C 005:693 JLINK_ReadReg(XPSR)  returns 0xA100002E (0000ms, 1442ms total)
T024C 005:693 JLINK_ClrBPEx(BPHandle = 0x00000005)  returns 0x00 (0000ms, 1442ms total)
T024C 005:693 JLINK_ReadMemU32(0xE000ED30, 0x0001 Items, ...) -- CPU_ReadMem(4 bytes @ 0xE000ED30) - Data: 03 00 00 00  returns 0x01 (0004ms, 1446ms total)
T024C 005:697 JLINK_ReadMemU32(0xE0001028, 0x0001 Items, ...) -- CPU_ReadMem(4 bytes @ 0xE0001028) - Data: 00 00 00 00  returns 0x01 (0004ms, 1450ms total)
T024C 005:701 JLINK_ReadMemU32(0xE0001038, 0x0001 Items, ...) -- CPU_ReadMem(4 bytes @ 0xE0001038) - Data: 00 02 00 00  returns 0x01 (0003ms, 1453ms total)
T024C 005:704 JLINK_ReadMemU32(0xE0001048, 0x0001 Items, ...) -- CPU_ReadMem(4 bytes @ 0xE0001048) - Data: 00 00 00 00  returns 0x01 (0004ms, 1457ms total)
T024C 005:708 JLINK_ReadMemU32(0xE0001058, 0x0001 Items, ...) -- CPU_ReadMem(4 bytes @ 0xE0001058) - Data: 00 00 00 00  returns 0x01 (0004ms, 1461ms total)
T024C 005:712 JLINK_ReadReg(R0)  returns 0x40000800 (0000ms, 1461ms total)
T024C 005:712 JLINK_ReadReg(R1)  returns 0xFFFFFFFE (0000ms, 1461ms total)
T024C 005:712 JLINK_ReadReg(R2)  returns 0x000000C0 (0000ms, 1461ms total)
T024C 005:712 JLINK_ReadReg(R3)  returns 0x0800057F (0000ms, 1461ms total)
T024C 005:712 JLINK_ReadReg(R4)  returns 0x00000004 (0000ms, 1461ms total)
T024C 005:712 JLINK_ReadReg(R5)  returns 0x00000007 (0000ms, 1461ms total)
T024C 005:712 JLINK_ReadReg(R6)  returns 0x00000000 (0000ms, 1461ms total)
T024C 005:712 JLINK_ReadReg(R7)  returns 0x00000000 (0000ms, 1461ms total)
T024C 005:712 JLINK_ReadReg(R8)  returns 0x00000000 (0000ms, 1461ms total)
T024C 005:712 JLINK_ReadReg(R9)  returns 0x00000000 (0000ms, 1461ms total)
T024C 005:712 JLINK_ReadReg(R10)  returns 0x00000000 (0000ms, 1461ms total)
T024C 005:712 JLINK_ReadReg(R11)  returns 0x00000000 (0000ms, 1461ms total)
T024C 005:712 JLINK_ReadReg(R12)  returns 0x00000000 (0000ms, 1461ms total)
T024C 005:712 JLINK_ReadReg(R13 (SP))  returns 0x20000490 (0000ms, 1461ms total)
T024C 005:712 JLINK_ReadReg(R14)  returns 0xFFFFFFF9 (0000ms, 1461ms total)
T024C 005:712 JLINK_ReadReg(R15 (PC))  returns 0x080006EE (0000ms, 1461ms total)
T024C 005:712 JLINK_ReadReg(XPSR)  returns 0xA100002E (0000ms, 1461ms total)
T024C 005:712 JLINK_ReadReg(MSP)  returns 0x20000490 (0001ms, 1462ms total)
T024C 005:713 JLINK_ReadReg(PSP)  returns 0x00000000 (0000ms, 1462ms total)
T024C 005:713 JLINK_ReadReg(CFBP)  returns 0x00000000 (0000ms, 1462ms total)
T024C 005:713 JLINK_ReadReg(FPSCR)  returns 0x00000000 (0077ms, 1539ms total)
T024C 005:790 JLINK_ReadReg(FPS0)  returns 0x00000000 (0001ms, 1540ms total)
T024C 005:791 JLINK_ReadReg(FPS1)  returns 0x00000000 (0000ms, 1540ms total)
T024C 005:791 JLINK_ReadReg(FPS2)  returns 0x00000000 (0000ms, 1540ms total)
T024C 005:791 JLINK_ReadReg(FPS3)  returns 0x00000000 (0000ms, 1540ms total)
T024C 005:791 JLINK_ReadReg(FPS4)  returns 0x00000000 (0000ms, 1540ms total)
T024C 005:791 JLINK_ReadReg(FPS5)  returns 0x00000000 (0000ms, 1540ms total)
T024C 005:791 JLINK_ReadReg(FPS6)  returns 0x00000000 (0000ms, 1540ms total)
T024C 005:791 JLINK_ReadReg(FPS7)  returns 0x00000000 (0000ms, 1540ms total)
T024C 005:791 JLINK_ReadReg(FPS8)  returns 0x00000000 (0000ms, 1540ms total)
T024C 005:791 JLINK_ReadReg(FPS9)  returns 0x00000000 (0000ms, 1540ms total)
T024C 005:791 JLINK_ReadReg(FPS10)  returns 0x00000000 (0000ms, 1540ms total)
T024C 005:791 JLINK_ReadReg(FPS11)  returns 0x00000000 (0000ms, 1540ms total)
T024C 005:791 JLINK_ReadReg(FPS12)  returns 0x00000000 (0000ms, 1540ms total)
T024C 005:791 JLINK_ReadReg(FPS13)  returns 0x00000000 (0000ms, 1540ms total)
T024C 005:791 JLINK_ReadReg(FPS14)  returns 0x00000000 (0000ms, 1540ms total)
T024C 005:791 JLINK_ReadReg(FPS15)  returns 0x00000000 (0001ms, 1541ms total)
T024C 005:792 JLINK_ReadReg(FPS16)  returns 0x00000000 (0000ms, 1541ms total)
T024C 005:792 JLINK_ReadReg(FPS17)  returns 0x00000000 (0000ms, 1541ms total)
T024C 005:792 JLINK_ReadReg(FPS18)  returns 0x00000000 (0000ms, 1541ms total)
T024C 005:792 JLINK_ReadReg(FPS19)  returns 0x00000000 (0000ms, 1541ms total)
T024C 005:792 JLINK_ReadReg(FPS20)  returns 0x00000000 (0000ms, 1541ms total)
T024C 005:792 JLINK_ReadReg(FPS21)  returns 0x00000000 (0000ms, 1541ms total)
T024C 005:792 JLINK_ReadReg(FPS22)  returns 0x00000000 (0000ms, 1541ms total)
T024C 005:792 JLINK_ReadReg(FPS23)  returns 0x00000000 (0000ms, 1541ms total)
T024C 005:792 JLINK_ReadReg(FPS24)  returns 0x00000000 (0000ms, 1541ms total)
T024C 005:792 JLINK_ReadReg(FPS25)  returns 0x00000000 (0000ms, 1541ms total)
T024C 005:792 JLINK_ReadReg(FPS26)  returns 0x00000000 (0000ms, 1541ms total)
T024C 005:792 JLINK_ReadReg(FPS27)  returns 0x00000000 (0000ms, 1541ms total)
T024C 005:792 JLINK_ReadReg(FPS28)  returns 0x00000000 (0000ms, 1541ms total)
T024C 005:792 JLINK_ReadReg(FPS29)  returns 0x00000000 (0000ms, 1541ms total)
T024C 005:792 JLINK_ReadReg(FPS30)  returns 0x00000000 (0000ms, 1541ms total)
T024C 005:792 JLINK_ReadReg(FPS31)  returns 0x00000000 (0000ms, 1541ms total)
T137C 005:793 JLINK_ReadMem (0x20000494, 0x0004 Bytes, ...) -- CPU_ReadMem(64 bytes @ 0x20000480) -- Updating C cache (64 bytes @ 0x20000480) -- Read from C cache (4 bytes @ 0x20000494) - Data: F9 FF FF FF  returns 0x00 (0007ms, 1548ms total)
T137C 005:800 JLINK_ReadMem (0x200004B0, 0x0004 Bytes, ...) -- Read from C cache (4 bytes @ 0x200004B0) - Data: 50 09 00 08  returns 0x00 (0000ms, 1548ms total)
T137C 005:800 JLINK_ReadMem (0x200004B4, 0x0004 Bytes, ...) -- Read from C cache (4 bytes @ 0x200004B4) - Data: 00 02 00 41  returns 0x00 (0000ms, 1548ms total)
T137C 005:800 JLINK_ReadMem (0x200004AC, 0x0004 Bytes, ...) -- Read from C cache (4 bytes @ 0x200004AC) - Data: EB 06 00 08  returns 0x00 (0000ms, 1548ms total)
T137C 005:800 JLINK_ReadMem (0xE000ED28, 0x0004 Bytes, ...) -- CPU_ReadMem(4 bytes @ 0xE000ED28) - Data: 00 00 00 00  returns 0x00 (0004ms, 1552ms total)
T137C 005:804 JLINK_ReadMem (0x200004C0, 0x0004 Bytes, ...) -- CPU_ReadMem(64 bytes @ 0x200004C0) -- Updating C cache (64 bytes @ 0x200004C0) -- Read from C cache (4 bytes @ 0x200004C0) - Data: 40 1F 00 00  returns 0x00 (0007ms, 1559ms total)
T137C 005:811 JLINK_ReadMem (0x200004B8, 0x0004 Bytes, ...) -- Read from C cache (4 bytes @ 0x200004B8) - Data: 00 00 04 01  returns 0x00 (0000ms, 1559ms total)
T137C 005:811 JLINK_ReadMem (0x200004BC, 0x0004 Bytes, ...) -- Read from C cache (4 bytes @ 0x200004BC) - Data: 00 08 00 40  returns 0x00 (0001ms, 1560ms total)
T137C 005:812 JLINK_ReadMem (0x20000015, 0x0020 Bytes, ...) -- CPU_ReadMem(64 bytes @ 0x20000000) -- Updating C cache (64 bytes @ 0x20000000) -- Read from C cache (32 bytes @ 0x20000015) - Data: AA BB 00 00 00 00 00 00 00 00 00 00 00 00 00 00 ...  returns 0x00 (0007ms, 1567ms total)
T137C 005:819 JLINK_ReadMem (0x20000000, 0x0001 Bytes, ...) -- Read from C cache (1 bytes @ 0x20000000) - Data: 40  returns 0x00 (0000ms, 1567ms total)
T137C 005:819 JLINK_ReadMem (0x20000001, 0x0001 Bytes, ...) -- Read from C cache (1 bytes @ 0x20000001) - Data: 02  returns 0x00 (0000ms, 1567ms total)
T137C 005:819 JLINK_ReadMem (0x20000064, 0x0004 Bytes, ...) -- CPU_ReadMem(64 bytes @ 0x20000040) -- Updating C cache (64 bytes @ 0x20000040) -- Read from C cache (4 bytes @ 0x20000064) - Data: C0 A8 01 69  returns 0x00 (0008ms, 1575ms total)
T137C 005:827 JLINK_ReadMem (0x20000004, 0x0002 Bytes, ...) -- Read from C cache (2 bytes @ 0x20000004) - Data: 00 00  returns 0x00 (0000ms, 1575ms total)
T137C 005:829 JLINK_ReadMem (0x20000010, 0x0001 Bytes, ...) -- Read from C cache (1 bytes @ 0x20000010) - Data: 00  returns 0x00 (0000ms, 1575ms total)
T137C 005:829 JLINK_ReadMem (0x20000035, 0x0001 Bytes, ...) -- Read from C cache (1 bytes @ 0x20000035) - Data: 00  returns 0x00 (0000ms, 1575ms total)
T024C 006:359 JLINK_Step() -- CPU_ReadMem(64 bytes @ 0x080006C0) -- Updating C cache (64 bytes @ 0x080006C0) -- Read from C cache (2 bytes @ 0x080006EE) -- CPU_ReadMem(4 bytes @ 0xE0001004) -- CPU_ReadMem(64 bytes @ 0x08000700) -- Updating C cache (64 bytes @ 0x08000700) -- Read from C cache (4 bytes @ 0x08000710) -- Simulated  returns 0x00 (0021ms, 1596ms total)
T024C 006:380 JLINK_ReadReg(R15 (PC))  returns 0x080006F0 (0000ms, 1596ms total)
T024C 006:381 JLINK_ReadReg(XPSR)  returns 0xA100002E (0000ms, 1597ms total)
T024C 006:381 JLINK_SetBPEx(Addr = 0x080006EE, Type = 0xFFFFFFF2)  returns 0x00000006 (0000ms, 1597ms total)
T024C 006:381 JLINK_Go() -- CPU_WriteMem(4 bytes @ 0xE0002000) -- CPU_WriteMem(4 bytes @ 0xE0001004) (0011ms, 1608ms total)
T024C 006:492 JLINK_IsHalted()  returns TRUE (0047ms, 1655ms total)
T024C 006:539 JLINK_Halt()  returns 0x00 (0000ms, 1608ms total)
T024C 006:539 JLINK_IsHalted()  returns TRUE (0000ms, 1608ms total)
T024C 006:539 JLINK_IsHalted()  returns TRUE (0000ms, 1608ms total)
T024C 006:539 JLINK_IsHalted()  returns TRUE (0000ms, 1608ms total)
T024C 006:539 JLINK_ReadReg(R15 (PC))  returns 0x080006EE (0000ms, 1608ms total)
T024C 006:539 JLINK_ReadReg(XPSR)  returns 0xA100002E (0000ms, 1608ms total)
T024C 006:539 JLINK_ClrBPEx(BPHandle = 0x00000006)  returns 0x00 (0000ms, 1608ms total)
T024C 006:539 JLINK_ReadMemU32(0xE000ED30, 0x0001 Items, ...) -- CPU_ReadMem(4 bytes @ 0xE000ED30) - Data: 03 00 00 00  returns 0x01 (0004ms, 1612ms total)
T024C 006:543 JLINK_ReadMemU32(0xE0001028, 0x0001 Items, ...) -- CPU_ReadMem(4 bytes @ 0xE0001028) - Data: 00 00 00 00  returns 0x01 (0004ms, 1616ms total)
T024C 006:547 JLINK_ReadMemU32(0xE0001038, 0x0001 Items, ...) -- CPU_ReadMem(4 bytes @ 0xE0001038) - Data: 00 02 00 00  returns 0x01 (0003ms, 1619ms total)
T024C 006:550 JLINK_ReadMemU32(0xE0001048, 0x0001 Items, ...) -- CPU_ReadMem(4 bytes @ 0xE0001048) - Data: 00 00 00 00  returns 0x01 (0003ms, 1622ms total)
T024C 006:553 JLINK_ReadMemU32(0xE0001058, 0x0001 Items, ...) -- CPU_ReadMem(4 bytes @ 0xE0001058) - Data: 00 00 00 00  returns 0x01 (0004ms, 1626ms total)
T024C 006:557 JLINK_ReadReg(R0)  returns 0x40000800 (0000ms, 1626ms total)
T024C 006:557 JLINK_ReadReg(R1)  returns 0xFFFFFFFE (0000ms, 1626ms total)
T024C 006:557 JLINK_ReadReg(R2)  returns 0x000000C0 (0000ms, 1626ms total)
T024C 006:557 JLINK_ReadReg(R3)  returns 0x0800057F (0000ms, 1626ms total)
T024C 006:557 JLINK_ReadReg(R4)  returns 0x00000004 (0000ms, 1626ms total)
T024C 006:557 JLINK_ReadReg(R5)  returns 0x00000007 (0000ms, 1626ms total)
T024C 006:557 JLINK_ReadReg(R6)  returns 0x00000000 (0000ms, 1626ms total)
T024C 006:557 JLINK_ReadReg(R7)  returns 0x00000000 (0000ms, 1626ms total)
T024C 006:557 JLINK_ReadReg(R8)  returns 0x00000000 (0000ms, 1626ms total)
T024C 006:557 JLINK_ReadReg(R9)  returns 0x00000000 (0000ms, 1626ms total)
T024C 006:557 JLINK_ReadReg(R10)  returns 0x00000000 (0000ms, 1626ms total)
T024C 006:557 JLINK_ReadReg(R11)  returns 0x00000000 (0000ms, 1626ms total)
T024C 006:557 JLINK_ReadReg(R12)  returns 0x00000000 (0000ms, 1626ms total)
T024C 006:557 JLINK_ReadReg(R13 (SP))  returns 0x20000490 (0001ms, 1627ms total)
T024C 006:558 JLINK_ReadReg(R14)  returns 0xFFFFFFF9 (0000ms, 1627ms total)
T024C 006:558 JLINK_ReadReg(R15 (PC))  returns 0x080006EE (0000ms, 1627ms total)
T024C 006:558 JLINK_ReadReg(XPSR)  returns 0xA100002E (0000ms, 1627ms total)
T024C 006:558 JLINK_ReadReg(MSP)  returns 0x20000490 (0000ms, 1627ms total)
T024C 006:558 JLINK_ReadReg(PSP)  returns 0x00000000 (0000ms, 1627ms total)
T024C 006:558 JLINK_ReadReg(CFBP)  returns 0x00000000 (0000ms, 1627ms total)
T024C 006:558 JLINK_ReadReg(FPSCR)  returns 0x00000000 (0077ms, 1704ms total)
T024C 006:635 JLINK_ReadReg(FPS0)  returns 0x00000000 (0000ms, 1704ms total)
T024C 006:635 JLINK_ReadReg(FPS1)  returns 0x00000000 (0000ms, 1704ms total)
T024C 006:635 JLINK_ReadReg(FPS2)  returns 0x00000000 (0000ms, 1704ms total)
T024C 006:635 JLINK_ReadReg(FPS3)  returns 0x00000000 (0000ms, 1704ms total)
T024C 006:635 JLINK_ReadReg(FPS4)  returns 0x00000000 (0000ms, 1704ms total)
T024C 006:635 JLINK_ReadReg(FPS5)  returns 0x00000000 (0000ms, 1704ms total)
T024C 006:635 JLINK_ReadReg(FPS6)  returns 0x00000000 (0000ms, 1704ms total)
